!MINI-CIRCUITS LABORATORY
!S-PARAMETERS
!MODEL: LFCW-1062+    Unit 1
!RUN: QN1315035 DATE CODE:1315   TEMPERATURE: 25 C
!UNIT WAS SOLDERED ON TEST BOARD TB-720+ WITH COMPLETION OF THRU PORT CALIBRATION ON TB-720+ 
!CONNECTION: PORT<1> - INPUT<1>, PORT<2> - OUTPUT PORT<1>
!TESTED WITH: PNAX NETWORK ANALYZER N5242A  CAL DUE: 3/15/2014


# MHZ S DB R 50
!Frequency        S11 dB  S11 DEG   S21 dB  S21 DEG   S12 dB  S12 DEG   S22 dB  S22 DEG
  10.0000     -3.721292E+001 -7.728432E+001 -9.455653E-003 -2.102975E-001 -9.690605E-003 -2.043280E-001 -3.787230E+001 -9.880472E+001
  20.0000     -4.587537E+001 -3.457043E+001 -1.097592E-002 -3.863144E-001 -1.019936E-002 -3.760847E-001 -5.118961E+001 -7.606483E+001
  30.0000     -4.544423E+001 -1.805834E+001 -1.229251E-002 -5.621007E-001 -1.096662E-002 -5.510016E-001 -4.339175E+001 -3.384150E+001
  40.0000     -4.572475E+001 -1.172619E+001 -1.278857E-002 -7.397919E-001 -1.221290E-002 -7.273017E-001 -4.385251E+001 -4.030742E+001
  50.0000     -4.502016E+001 -2.182069E+001 -1.354382E-002 -9.185997E-001 -1.262875E-002 -9.021601E-001 -4.885013E+001 -5.003100E+001
  60.0000     -4.747438E+001 -2.282080E+001 -1.584301E-002 -1.116654E+000 -1.420175E-002 -1.127326E+000 -5.197110E+001 -7.931319E+001
  70.0000     -4.549119E+001 -2.603101E+001 -1.697387E-002 -1.293998E+000 -1.618511E-002 -1.311191E+000 -5.220852E+001 -6.498542E+001
  80.0000     -4.491356E+001 -2.763192E+001 -1.761027E-002 -1.470544E+000 -1.646436E-002 -1.490317E+000 -4.751674E+001  5.627168E-001
  90.0000     -4.533591E+001 -2.918728E+001 -1.840795E-002 -1.645258E+000 -1.691984E-002 -1.669786E+000 -4.322972E+001 -1.602529E+001
 100.0000     -4.601199E+001 -2.389890E+001 -1.979708E-002 -1.819384E+000 -1.783433E-002 -1.843693E+000 -4.331480E+001 -3.194180E+001
 110.0000     -4.545359E+001 -2.234119E+001 -2.001666E-002 -1.990825E+000 -1.887870E-002 -2.016159E+000 -4.852326E+001 -5.411691E+001
 120.0000     -4.519723E+001 -2.614309E+001 -2.092838E-002 -2.165126E+000 -1.998747E-002 -2.189348E+000 -5.417541E+001 -6.458279E+001
 130.0000     -4.547585E+001 -2.754448E+001 -2.135046E-002 -2.341139E+000 -2.010611E-002 -2.366460E+000 -5.306664E+001 -5.691354E+001
 140.0000     -4.578280E+001 -3.230911E+001 -2.186460E-002 -2.514443E+000 -2.099156E-002 -2.541572E+000 -4.567329E+001 -4.881607E+000
 150.0000     -4.532755E+001 -3.193709E+001 -2.302019E-002 -2.690150E+000 -2.156056E-002 -2.718956E+000 -4.167634E+001 -1.638177E+001
 160.0000     -4.391943E+001 -3.232313E+001 -2.383687E-002 -2.862004E+000 -2.272145E-002 -2.886384E+000 -4.241284E+001 -3.417044E+001
 170.0000     -4.356342E+001 -3.405710E+001 -2.447676E-002 -3.034911E+000 -2.328441E-002 -3.057756E+000 -4.660774E+001 -5.293489E+001
 180.0000     -4.414557E+001 -3.645526E+001 -2.503614E-002 -3.203972E+000 -2.393920E-002 -3.231397E+000 -4.996317E+001 -5.499916E+001
 190.0000     -4.365379E+001 -3.678082E+001 -2.565381E-002 -3.378147E+000 -2.391372E-002 -3.403141E+000 -4.907460E+001 -5.806296E+001
 200.0000     -4.250594E+001 -3.954958E+001 -2.616340E-002 -3.556572E+000 -2.461975E-002 -3.575360E+000 -4.755457E+001 -1.951342E+001
 210.0000     -4.246999E+001 -3.945148E+001 -2.631142E-002 -3.726117E+000 -2.462961E-002 -3.753272E+000 -4.288641E+001 -1.890806E+001
 220.0000     -4.302100E+001 -3.941626E+001 -2.696811E-002 -3.899630E+000 -2.543347E-002 -3.925505E+000 -4.206562E+001 -3.635224E+001
 230.0000     -4.259469E+001 -4.204294E+001 -2.761198E-002 -4.069582E+000 -2.647354E-002 -4.095161E+000 -4.503298E+001 -6.382750E+001
 240.0000     -4.197081E+001 -4.395134E+001 -2.849994E-002 -4.242508E+000 -2.732431E-002 -4.268468E+000 -4.727126E+001 -7.880645E+001
 250.0000     -4.140857E+001 -4.426619E+001 -2.913157E-002 -4.416680E+000 -2.712777E-002 -4.442250E+000 -4.569164E+001 -7.827917E+001
 260.0000     -4.203635E+001 -4.645834E+001 -2.968617E-002 -4.586929E+000 -2.722785E-002 -4.611993E+000 -4.548335E+001 -3.361985E+001
 270.0000     -4.180005E+001 -4.766300E+001 -2.981222E-002 -4.760999E+000 -2.762108E-002 -4.786513E+000 -4.136428E+001 -3.199836E+001
 280.0000     -4.125822E+001 -4.624464E+001 -3.014700E-002 -4.933755E+000 -2.883858E-002 -4.961502E+000 -4.071786E+001 -4.677636E+001
 290.0000     -4.095047E+001 -4.704924E+001 -3.098309E-002 -5.103618E+000 -2.999332E-002 -5.130075E+000 -4.237324E+001 -6.622821E+001
 300.0000     -4.132702E+001 -5.170554E+001 -3.135997E-002 -5.267088E+000 -2.995939E-002 -5.300741E+000 -4.591455E+001 -7.546875E+001
 310.0000     -4.096674E+001 -5.449492E+001 -3.211613E-002 -5.442471E+000 -3.061193E-002 -5.471227E+000 -4.422757E+001 -7.628687E+001
 320.0000     -3.993834E+001 -5.611624E+001 -3.279069E-002 -5.616289E+000 -3.102684E-002 -5.646089E+000 -4.435124E+001 -5.744205E+001
 330.0000     -4.051508E+001 -5.479031E+001 -3.279286E-002 -5.791467E+000 -3.062002E-002 -5.819429E+000 -4.117025E+001 -4.235961E+001
 340.0000     -4.067634E+001 -6.056484E+001 -3.315178E-002 -5.964230E+000 -3.199867E-002 -5.992169E+000 -4.007720E+001 -5.295726E+001
 350.0000     -4.058023E+001 -6.318792E+001 -3.380200E-002 -6.131508E+000 -3.249347E-002 -6.159509E+000 -4.128515E+001 -7.192309E+001
 360.0000     -4.034906E+001 -6.302106E+001 -3.401715E-002 -6.302761E+000 -3.282348E-002 -6.328809E+000 -4.296534E+001 -8.208377E+001
 370.0000     -3.993551E+001 -6.072130E+001 -3.413299E-002 -6.474280E+000 -3.333386E-002 -6.501791E+000 -4.184504E+001 -8.103749E+001
 380.0000     -3.968611E+001 -6.283381E+001 -3.475159E-002 -6.646262E+000 -3.288318E-002 -6.677134E+000 -4.244422E+001 -6.659826E+001
 390.0000     -3.971432E+001 -6.489968E+001 -3.561018E-002 -6.822832E+000 -3.317888E-002 -6.850550E+000 -4.042846E+001 -5.300353E+001
 400.0000     -3.982803E+001 -6.465672E+001 -3.541633E-002 -6.998958E+000 -3.385334E-002 -7.026522E+000 -3.889037E+001 -5.775063E+001
 410.0000     -3.959332E+001 -6.315392E+001 -3.594554E-002 -7.167391E+000 -3.503980E-002 -7.193527E+000 -3.928013E+001 -7.401757E+001
 420.0000     -3.941379E+001 -6.651471E+001 -3.658868E-002 -7.334514E+000 -3.519848E-002 -7.360424E+000 -4.121264E+001 -8.946383E+001
 430.0000     -3.941368E+001 -6.874622E+001 -3.735546E-002 -7.504665E+000 -3.539678E-002 -7.531429E+000 -4.046945E+001 -9.193663E+001
 440.0000     -3.912348E+001 -6.920625E+001 -3.776231E-002 -7.680444E+000 -3.541903E-002 -7.706204E+000 -4.103049E+001 -8.003095E+001
 450.0000     -3.887532E+001 -7.051268E+001 -3.802213E-002 -7.853461E+000 -3.528380E-002 -7.880931E+000 -3.974908E+001 -6.418067E+001
 460.0000     -3.862254E+001 -7.286388E+001 -3.779029E-002 -8.023794E+000 -3.605033E-002 -8.052238E+000 -3.842745E+001 -6.878165E+001
 470.0000     -3.853092E+001 -7.535965E+001 -3.915701E-002 -8.192701E+000 -3.736324E-002 -8.221733E+000 -3.856298E+001 -8.335808E+001
 480.0000     -3.824384E+001 -7.629170E+001 -3.927591E-002 -8.360916E+000 -3.812557E-002 -8.390694E+000 -3.974858E+001 -9.466447E+001
 490.0000     -3.792145E+001 -7.506360E+001 -3.950861E-002 -8.532655E+000 -3.861545E-002 -8.561332E+000 -3.935280E+001 -9.496146E+001
 500.0000     -3.760446E+001 -7.701321E+001 -4.004582E-002 -8.697936E+000 -3.857414E-002 -8.736124E+000 -3.973633E+001 -8.968922E+001
 510.0000     -3.761307E+001 -8.188077E+001 -4.027818E-002 -8.878673E+000 -3.843286E-002 -8.908598E+000 -3.921512E+001 -7.422653E+001
 520.0000     -3.763517E+001 -8.246287E+001 -4.039640E-002 -9.051910E+000 -3.881208E-002 -9.082219E+000 -3.783293E+001 -7.369225E+001
 530.0000     -3.722801E+001 -8.103348E+001 -4.123555E-002 -9.222717E+000 -3.964642E-002 -9.252866E+000 -3.742484E+001 -8.551984E+001
 540.0000     -3.724287E+001 -8.113621E+001 -4.158302E-002 -9.390469E+000 -4.087916E-002 -9.419653E+000 -3.819235E+001 -9.921481E+001
 550.0000     -3.725121E+001 -8.417085E+001 -4.224804E-002 -9.561370E+000 -4.080888E-002 -9.592205E+000 -3.785089E+001 -9.896751E+001
 560.0000     -3.709880E+001 -8.642403E+001 -4.250123E-002 -9.729939E+000 -4.088333E-002 -9.762337E+000 -3.809206E+001 -9.454220E+001
 570.0000     -3.700540E+001 -8.647340E+001 -4.325332E-002 -9.906020E+000 -4.088518E-002 -9.937530E+000 -3.803586E+001 -8.294717E+001
 580.0000     -3.696926E+001 -8.728061E+001 -4.312872E-002 -1.007895E+001 -4.115325E-002 -1.011234E+001 -3.694158E+001 -7.997200E+001
 590.0000     -3.687259E+001 -9.004622E+001 -4.366530E-002 -1.024898E+001 -4.248324E-002 -1.028265E+001 -3.638202E+001 -8.780569E+001
 600.0000     -3.670534E+001 -9.203094E+001 -4.392226E-002 -1.041639E+001 -4.309454E-002 -1.044714E+001 -3.699952E+001 -9.984047E+001
 610.0000     -3.668368E+001 -9.052926E+001 -4.435609E-002 -1.058606E+001 -4.388110E-002 -1.061886E+001 -3.694094E+001 -1.022159E+002
 620.0000     -3.642779E+001 -8.961998E+001 -4.465072E-002 -1.075779E+001 -4.361272E-002 -1.078874E+001 -3.697671E+001 -9.959324E+001
 630.0000     -3.626227E+001 -9.276295E+001 -4.551940E-002 -1.092828E+001 -4.357646E-002 -1.096159E+001 -3.749911E+001 -8.851227E+001
 640.0000     -3.615288E+001 -9.452412E+001 -4.598963E-002 -1.110412E+001 -4.356094E-002 -1.113577E+001 -3.649134E+001 -8.442941E+001
 650.0000     -3.612032E+001 -9.384455E+001 -4.576151E-002 -1.127602E+001 -4.513611E-002 -1.130732E+001 -3.579859E+001 -9.378180E+001
 660.0000     -3.597491E+001 -9.491380E+001 -4.619093E-002 -1.144500E+001 -4.605386E-002 -1.147408E+001 -3.588939E+001 -1.047764E+002
 670.0000     -3.589578E+001 -9.742991E+001 -4.655363E-002 -1.161396E+001 -4.653545E-002 -1.164263E+001 -3.586760E+001 -1.070345E+002
 680.0000     -3.578158E+001 -9.922711E+001 -4.746824E-002 -1.178350E+001 -4.657547E-002 -1.181729E+001 -3.601887E+001 -1.056015E+002
 690.0000     -3.571741E+001 -9.931909E+001 -4.724868E-002 -1.195679E+001 -4.617026E-002 -1.199083E+001 -3.657837E+001 -9.701874E+001
 700.0000     -3.563779E+001 -9.861301E+001 -4.757647E-002 -1.213229E+001 -4.600471E-002 -1.216502E+001 -3.594338E+001 -9.125837E+001
 710.0000     -3.545054E+001 -9.993995E+001 -4.781968E-002 -1.230430E+001 -4.724493E-002 -1.233809E+001 -3.518680E+001 -9.673849E+001
 720.0000     -3.527327E+001 -1.028132E+002 -4.799234E-002 -1.246978E+001 -4.834168E-002 -1.250115E+001 -3.523611E+001 -1.079400E+002
 730.0000     -3.527951E+001 -1.044156E+002 -4.895585E-002 -1.263744E+001 -4.859883E-002 -1.267166E+001 -3.532308E+001 -1.116159E+002
 740.0000     -3.521485E+001 -1.036879E+002 -4.917134E-002 -1.281093E+001 -4.886724E-002 -1.284327E+001 -3.517257E+001 -1.098549E+002
 750.0000     -3.509938E+001 -1.042639E+002 -4.931783E-002 -1.298383E+001 -4.781540E-002 -1.301559E+001 -3.584157E+001 -1.034585E+002
 760.0000     -3.497084E+001 -1.059220E+002 -5.010848E-002 -1.315723E+001 -4.746289E-002 -1.319170E+001 -3.538044E+001 -9.859616E+001
 770.0000     -3.479260E+001 -1.075147E+002 -5.005271E-002 -1.333027E+001 -4.900794E-002 -1.336295E+001 -3.458997E+001 -1.025817E+002
 780.0000     -3.469623E+001 -1.081255E+002 -5.058392E-002 -1.349918E+001 -5.024282E-002 -1.353098E+001 -3.426681E+001 -1.112735E+002
 790.0000     -3.465969E+001 -1.090363E+002 -5.084943E-002 -1.366665E+001 -5.096874E-002 -1.370065E+001 -3.426676E+001 -1.157356E+002
 800.0000     -3.449157E+001 -1.100292E+002 -5.166497E-002 -1.383844E+001 -5.125171E-002 -1.387164E+001 -3.410488E+001 -1.152695E+002
 810.0000     -3.429126E+001 -1.117236E+002 -5.223060E-002 -1.400958E+001 -5.010505E-002 -1.404424E+001 -3.488006E+001 -1.108738E+002
 820.0000     -3.424625E+001 -1.115573E+002 -5.200589E-002 -1.418647E+001 -4.970767E-002 -1.421882E+001 -3.478912E+001 -1.048456E+002
 830.0000     -3.414456E+001 -1.118893E+002 -5.255604E-002 -1.435753E+001 -5.083200E-002 -1.439124E+001 -3.406128E+001 -1.073320E+002
 840.0000     -3.391885E+001 -1.139092E+002 -5.349448E-002 -1.452433E+001 -5.252052E-002 -1.456085E+001 -3.361226E+001 -1.159404E+002
 850.0000     -3.381698E+001 -1.158831E+002 -5.413011E-002 -1.469096E+001 -5.312086E-002 -1.472783E+001 -3.360342E+001 -1.209673E+002
 860.0000     -3.385909E+001 -1.160340E+002 -5.468738E-002 -1.486318E+001 -5.368452E-002 -1.490163E+001 -3.346540E+001 -1.207391E+002
 870.0000     -3.381057E+001 -1.159476E+002 -5.433860E-002 -1.503530E+001 -5.292072E-002 -1.507153E+001 -3.404813E+001 -1.179713E+002
 880.0000     -3.361126E+001 -1.173509E+002 -5.476270E-002 -1.520935E+001 -5.219114E-002 -1.524477E+001 -3.417127E+001 -1.130059E+002
 890.0000     -3.345508E+001 -1.185576E+002 -5.566939E-002 -1.538302E+001 -5.282107E-002 -1.541963E+001 -3.357949E+001 -1.132041E+002
 900.0000     -3.340195E+001 -1.192404E+002 -5.512084E-002 -1.555382E+001 -5.431236E-002 -1.559077E+001 -3.304018E+001 -1.197057E+002
 910.0000     -3.337330E+001 -1.199748E+002 -5.537149E-002 -1.571951E+001 -5.537401E-002 -1.575832E+001 -3.289717E+001 -1.251352E+002
 920.0000     -3.314876E+001 -1.212183E+002 -5.626145E-002 -1.589089E+001 -5.578805E-002 -1.592898E+001 -3.263425E+001 -1.247157E+002
 930.0000     -3.290250E+001 -1.229964E+002 -5.673658E-002 -1.606284E+001 -5.511177E-002 -1.609901E+001 -3.328265E+001 -1.236571E+002
 940.0000     -3.286012E+001 -1.240202E+002 -5.691706E-002 -1.623486E+001 -5.458536E-002 -1.627594E+001 -3.367374E+001 -1.189458E+002
 950.0000     -3.291199E+001 -1.237301E+002 -5.633528E-002 -1.641080E+001 -5.530022E-002 -1.644911E+001 -3.314278E+001 -1.177502E+002
 960.0000     -3.284137E+001 -1.240046E+002 -5.758446E-002 -1.658230E+001 -5.685256E-002 -1.662304E+001 -3.238971E+001 -1.229588E+002
 970.0000     -3.269310E+001 -1.250298E+002 -5.821491E-002 -1.674906E+001 -5.808129E-002 -1.679033E+001 -3.211599E+001 -1.292253E+002
 980.0000     -3.258691E+001 -1.261605E+002 -5.848926E-002 -1.691974E+001 -5.859072E-002 -1.695980E+001 -3.184767E+001 -1.297003E+002
 990.0000     -3.248311E+001 -1.276499E+002 -5.967662E-002 -1.709196E+001 -5.784772E-002 -1.712956E+001 -3.235156E+001 -1.289577E+002
1000.0000     -3.235220E+001 -1.290417E+002 -5.952302E-002 -1.726418E+001 -5.716854E-002 -1.730406E+001 -3.291187E+001 -1.242019E+002
1010.0000     -3.220682E+001 -1.296938E+002 -5.918088E-002 -1.743740E+001 -5.805823E-002 -1.747754E+001 -3.247208E+001 -1.225944E+002
1020.0000     -3.212083E+001 -1.303298E+002 -6.025176E-002 -1.760898E+001 -5.954556E-002 -1.764903E+001 -3.177913E+001 -1.283241E+002
1030.0000     -3.209887E+001 -1.309064E+002 -6.047883E-002 -1.777677E+001 -6.056302E-002 -1.781657E+001 -3.149079E+001 -1.333474E+002
1040.0000     -3.195145E+001 -1.313715E+002 -6.095643E-002 -1.795042E+001 -6.075072E-002 -1.798953E+001 -3.131240E+001 -1.334350E+002
1050.0000     -3.174949E+001 -1.325165E+002 -6.102623E-002 -1.812129E+001 -5.980704E-002 -1.815762E+001 -3.182466E+001 -1.334687E+002
1060.0000     -3.165309E+001 -1.336541E+002 -6.159595E-002 -1.829419E+001 -5.940763E-002 -1.832895E+001 -3.237788E+001 -1.305061E+002
1070.0000     -3.165062E+001 -1.340925E+002 -6.215931E-002 -1.846821E+001 -5.977362E-002 -1.850595E+001 -3.213648E+001 -1.283289E+002
1080.0000     -3.162162E+001 -1.343934E+002 -6.212834E-002 -1.864026E+001 -6.126584E-002 -1.868198E+001 -3.142883E+001 -1.313413E+002
1090.0000     -3.146911E+001 -1.356702E+002 -6.238830E-002 -1.880853E+001 -6.311323E-002 -1.884890E+001 -3.099749E+001 -1.370214E+002
1100.0000     -3.134564E+001 -1.369298E+002 -6.280400E-002 -1.898086E+001 -6.377526E-002 -1.901783E+001 -3.071934E+001 -1.378389E+002
1110.0000     -3.130936E+001 -1.380645E+002 -6.385609E-002 -1.915121E+001 -6.295483E-002 -1.918828E+001 -3.112147E+001 -1.385878E+002
1120.0000     -3.130594E+001 -1.388057E+002 -6.363076E-002 -1.932254E+001 -6.164803E-002 -1.935922E+001 -3.179190E+001 -1.361467E+002
1130.0000     -3.116217E+001 -1.393973E+002 -6.408697E-002 -1.949668E+001 -6.194709E-002 -1.953320E+001 -3.169076E+001 -1.335832E+002
1140.0000     -3.098424E+001 -1.398365E+002 -6.558610E-002 -1.967262E+001 -6.354050E-002 -1.971288E+001 -3.097528E+001 -1.354835E+002
1150.0000     -3.087433E+001 -1.407196E+002 -6.522216E-002 -1.983909E+001 -6.539071E-002 -1.988197E+001 -3.045213E+001 -1.409800E+002
1160.0000     -3.080358E+001 -1.413223E+002 -6.496096E-002 -2.001031E+001 -6.572385E-002 -2.005194E+001 -3.021227E+001 -1.427206E+002
1170.0000     -3.061770E+001 -1.422620E+002 -6.648992E-002 -2.018042E+001 -6.542698E-002 -2.021935E+001 -3.041391E+001 -1.434437E+002
1180.0000     -3.050974E+001 -1.430975E+002 -6.640719E-002 -2.035134E+001 -6.423297E-002 -2.039013E+001 -3.116051E+001 -1.422502E+002
1190.0000     -3.052988E+001 -1.434064E+002 -6.626835E-002 -2.052626E+001 -6.366056E-002 -2.056726E+001 -3.125893E+001 -1.391000E+002
1200.0000     -3.049962E+001 -1.440637E+002 -6.659583E-002 -2.069886E+001 -6.519303E-002 -2.074375E+001 -3.051894E+001 -1.408850E+002
1210.0000     -3.037224E+001 -1.452192E+002 -6.739479E-002 -2.086809E+001 -6.716745E-002 -2.091534E+001 -2.988693E+001 -1.457148E+002
1220.0000     -3.024893E+001 -1.464980E+002 -6.826416E-002 -2.103994E+001 -6.777574E-002 -2.108472E+001 -2.962378E+001 -1.468362E+002
1230.0000     -3.020018E+001 -1.475670E+002 -6.865469E-002 -2.121062E+001 -6.718066E-002 -2.125397E+001 -2.987713E+001 -1.474600E+002
1240.0000     -3.022878E+001 -1.484169E+002 -6.765542E-002 -2.137955E+001 -6.616198E-002 -2.142139E+001 -3.065440E+001 -1.465006E+002
1250.0000     -3.007158E+001 -1.488536E+002 -6.836181E-002 -2.155357E+001 -6.583927E-002 -2.159775E+001 -3.076074E+001 -1.437178E+002
1260.0000     -2.988687E+001 -1.494272E+002 -7.027450E-002 -2.173108E+001 -6.745642E-002 -2.177900E+001 -3.013148E+001 -1.441068E+002
1270.0000     -2.977930E+001 -1.504579E+002 -6.979257E-002 -2.189870E+001 -6.934610E-002 -2.194770E+001 -2.944824E+001 -1.489512E+002
1280.0000     -2.973829E+001 -1.511850E+002 -6.979302E-002 -2.206929E+001 -7.034720E-002 -2.211630E+001 -2.913710E+001 -1.514148E+002
1290.0000     -2.966458E+001 -1.516174E+002 -7.062184E-002 -2.224268E+001 -6.979662E-002 -2.228546E+001 -2.922385E+001 -1.522598E+002
1300.0000     -2.958046E+001 -1.524232E+002 -7.142457E-002 -2.241066E+001 -6.886984E-002 -2.245460E+001 -2.998529E+001 -1.524698E+002
1310.0000     -2.953524E+001 -1.533332E+002 -7.101570E-002 -2.258504E+001 -6.844510E-002 -2.262955E+001 -3.036078E+001 -1.496779E+002
1320.0000     -2.953485E+001 -1.540659E+002 -7.081097E-002 -2.276110E+001 -6.994396E-002 -2.280762E+001 -2.978075E+001 -1.494839E+002
1330.0000     -2.950749E+001 -1.546976E+002 -7.172403E-002 -2.293208E+001 -7.145596E-002 -2.298297E+001 -2.904710E+001 -1.530576E+002
1340.0000     -2.940890E+001 -1.553986E+002 -7.245140E-002 -2.310419E+001 -7.250024E-002 -2.315478E+001 -2.872484E+001 -1.551752E+002
1350.0000     -2.926818E+001 -1.564286E+002 -7.264728E-002 -2.327510E+001 -7.285228E-002 -2.332191E+001 -2.875990E+001 -1.558445E+002
1360.0000     -2.918135E+001 -1.575738E+002 -7.327610E-002 -2.344333E+001 -7.170137E-002 -2.348955E+001 -2.942819E+001 -1.566299E+002
1370.0000     -2.911511E+001 -1.582955E+002 -7.388052E-002 -2.361809E+001 -7.136127E-002 -2.366354E+001 -2.987624E+001 -1.543121E+002
1380.0000     -2.899474E+001 -1.589718E+002 -7.420347E-002 -2.379154E+001 -7.190836E-002 -2.384567E+001 -2.942203E+001 -1.534988E+002
1390.0000     -2.890299E+001 -1.598850E+002 -7.502168E-002 -2.396515E+001 -7.409184E-002 -2.401825E+001 -2.863392E+001 -1.569753E+002
1400.0000     -2.889050E+001 -1.606255E+002 -7.506748E-002 -2.413672E+001 -7.513614E-002 -2.418894E+001 -2.829288E+001 -1.593051E+002
1410.0000     -2.886613E+001 -1.612168E+002 -7.526230E-002 -2.430936E+001 -7.513382E-002 -2.435862E+001 -2.830277E+001 -1.600299E+002
1420.0000     -2.877440E+001 -1.618862E+002 -7.550506E-002 -2.447698E+001 -7.391694E-002 -2.452282E+001 -2.892548E+001 -1.616232E+002
1430.0000     -2.864529E+001 -1.626569E+002 -7.665567E-002 -2.465000E+001 -7.342464E-002 -2.469754E+001 -2.938073E+001 -1.604439E+002
1440.0000     -2.860129E+001 -1.633548E+002 -7.602116E-002 -2.482391E+001 -7.404683E-002 -2.487652E+001 -2.906106E+001 -1.593232E+002
